                                kicad schematic 
                                AC Analysis  Mon Oct 27 19:20:09  2025
--------------------------------------------------------------------------------
Index   frequency       vv1#branch                      
--------------------------------------------------------------------------------
0	1.000000e+00	-2.85444e-12,	-5.95511e-15	
1	1.261917e+00	-2.85444e-12,	-7.51485e-15	
2	1.592436e+00	-2.85444e-12,	-9.48312e-15	
3	2.009522e+00	-2.85444e-12,	-1.19669e-14	
4	2.535851e+00	-2.85444e-12,	-1.51013e-14	
5	3.200035e+00	-2.85444e-12,	-1.90565e-14	
6	4.038180e+00	-2.85444e-12,	-2.40478e-14	
7	5.095849e+00	-2.85444e-12,	-3.03463e-14	
8	6.430541e+00	-2.85444e-12,	-3.82946e-14	
9	8.114812e+00	-2.85444e-12,	-4.83246e-14	
10	1.024022e+01	-2.85444e-12,	-6.09816e-14	
11	1.292231e+01	-2.85444e-12,	-7.69538e-14	
12	1.630689e+01	-2.85444e-12,	-9.71093e-14	
13	2.057795e+01	-2.85444e-12,	-1.22544e-13	
14	2.596768e+01	-2.85444e-12,	-1.54640e-13	
15	3.276907e+01	-2.85444e-12,	-1.95143e-13	
16	4.135186e+01	-2.85444e-12,	-2.46255e-13	
17	5.218263e+01	-2.85444e-12,	-3.10753e-13	
18	6.585017e+01	-2.85444e-12,	-3.92145e-13	
19	8.309747e+01	-2.85444e-12,	-4.94854e-13	
20	1.048621e+02	-2.85444e-12,	-6.24465e-13	
21	1.323274e+02	-2.85444e-12,	-7.88024e-13	
22	1.669862e+02	-2.85444e-12,	-9.94421e-13	
23	2.107228e+02	-2.85444e-12,	-1.25488e-12	
24	2.659148e+02	-2.85444e-12,	-1.58355e-12	
25	3.355625e+02	-2.85444e-12,	-1.99831e-12	
26	4.234522e+02	-2.85444e-12,	-2.52170e-12	
27	5.343617e+02	-2.85444e-12,	-3.18218e-12	
28	6.743203e+02	-2.85444e-12,	-4.01565e-12	
29	8.509366e+02	-2.85444e-12,	-5.06742e-12	
30	1.073812e+03	-2.85444e-12,	-6.39466e-12	
31	1.355062e+03	-2.85444e-12,	-8.06954e-12	
32	1.709976e+03	-2.85444e-12,	-1.01831e-11	
33	2.157848e+03	-2.85444e-12,	-1.28502e-11	
34	2.723027e+03	-2.85444e-12,	-1.62159e-11	
35	3.436235e+03	-2.85444e-12,	-2.04631e-11	
36	4.336244e+03	-2.85445e-12,	-2.58228e-11	
37	5.471982e+03	-2.85446e-12,	-3.25862e-11	
38	6.905190e+03	-2.85447e-12,	-4.11211e-11	
39	8.713779e+03	-2.85448e-12,	-5.18915e-11	
40	1.099607e+04	-2.85451e-12,	-6.54828e-11	
41	1.387613e+04	-2.85455e-12,	-8.26339e-11	
42	1.751053e+04	-2.85462e-12,	-1.04277e-10	
43	2.209685e+04	-2.85473e-12,	-1.31589e-10	
44	2.788440e+04	-2.85491e-12,	-1.66055e-10	
45	3.518781e+04	-2.85519e-12,	-2.09547e-10	
46	4.440411e+04	-2.85564e-12,	-2.64431e-10	
47	5.603431e+04	-2.85635e-12,	-3.33690e-10	
48	7.071068e+04	-2.85748e-12,	-4.21090e-10	
49	8.923104e+04	-2.85928e-12,	-5.31380e-10	
50	1.126022e+05	-2.86215e-12,	-6.70558e-10	
51	1.420947e+05	-2.86671e-12,	-8.46189e-10	
52	1.793118e+05	-2.87399e-12,	-1.06782e-09	
53	2.262766e+05	-2.88557e-12,	-1.34750e-09	
54	2.855424e+05	-2.90401e-12,	-1.70044e-09	

Index   frequency       vv1#branch                      
--------------------------------------------------------------------------------
55	3.603309e+05	-2.93338e-12,	-2.14581e-09	
56	4.547079e+05	-2.98015e-12,	-2.70783e-09	
57	5.738038e+05	-3.05463e-12,	-3.41706e-09	
58	7.240930e+05	-3.17324e-12,	-4.31205e-09	
59	9.137456e+05	-3.36210e-12,	-5.44145e-09	
60	1.153072e+06	-3.66286e-12,	-6.86666e-09	
61	1.455081e+06	-4.14180e-12,	-8.66516e-09	
62	1.836192e+06	-4.90449e-12,	-1.09347e-08	
63	2.317123e+06	-6.11901e-12,	-1.37987e-08	
64	2.924018e+06	-8.05306e-12,	-1.74128e-08	
65	3.689869e+06	-1.11329e-11,	-2.19736e-08	
66	4.656310e+06	-1.60374e-11,	-2.77288e-08	
67	5.875879e+06	-2.38474e-11,	-3.49915e-08	
68	7.414874e+06	-3.62843e-11,	-4.41563e-08	
69	9.356958e+06	-5.60894e-11,	-5.57216e-08	
70	1.180771e+07	-8.76276e-11,	-7.03160e-08	
71	1.490035e+07	-1.37850e-10,	-8.87329e-08	
72	1.880302e+07	-2.17826e-10,	-1.11973e-07	
73	2.372785e+07	-3.45182e-10,	-1.41301e-07	
74	2.994259e+07	-5.47986e-10,	-1.78309e-07	
75	3.778508e+07	-8.70934e-10,	-2.25010e-07	
76	4.768165e+07	-1.38520e-09,	-2.83941e-07	
77	6.017030e+07	-2.20410e-09,	-3.58304e-07	
78	7.592995e+07	-3.50808e-09,	-4.52137e-07	
79	9.581733e+07	-5.58442e-09,	-5.70535e-07	
80	1.209136e+08	-8.89041e-09,	-7.19917e-07	
81	1.525829e+08	-1.41539e-08,	-9.08373e-07	
82	1.925471e+08	-2.25328e-08,	-1.14609e-06	
83	2.429785e+08	-3.58684e-08,	-1.44586e-06	
84	3.066188e+08	-5.70863e-08,	-1.82372e-06	
85	3.869276e+08	-9.08284e-08,	-2.29973e-06	
86	4.882707e+08	-1.44444e-07,	-2.89874e-06	
87	6.161573e+08	-2.29528e-07,	-3.65131e-06	
88	7.775396e+08	-3.64277e-07,	-4.59432e-06	
89	9.811907e+08	-5.76989e-07,	-5.77108e-06	
90	1.238182e+09	-9.11057e-07,	-7.22990e-06	
91	1.562483e+09	-1.43149e-06,	-9.01967e-06	
92	1.971725e+09	-2.23202e-06,	-1.11798e-05	
93	2.488154e+09	-3.43929e-06,	-1.37209e-05	
94	3.139844e+09	-5.20548e-06,	-1.65939e-05	
95	3.962224e+09	-7.67345e-06,	-1.96516e-05	
96	5.000000e+09	-1.08970e-05,	-2.26261e-05	

                                kicad schematic 
                                AC Analysis  Mon Oct 27 19:20:09  2025
--------------------------------------------------------------------------------
Index   frequency       vv2#branch                      
--------------------------------------------------------------------------------
0	1.000000e+00	3.903648e-13,	4.365689e-15	
1	1.261917e+00	3.903648e-13,	5.509139e-15	
2	1.592436e+00	3.903648e-13,	6.952078e-15	
3	2.009522e+00	3.903648e-13,	8.772949e-15	
4	2.535851e+00	3.903648e-13,	1.107074e-14	
5	3.200035e+00	3.903648e-13,	1.397036e-14	
6	4.038180e+00	3.903648e-13,	1.762944e-14	
7	5.095849e+00	3.903648e-13,	2.224689e-14	
8	6.430541e+00	3.903648e-13,	2.807374e-14	
9	8.114812e+00	3.903648e-13,	3.542674e-14	
10	1.024022e+01	3.903648e-13,	4.470562e-14	
11	1.292231e+01	3.903648e-13,	5.641481e-14	
12	1.630689e+01	3.903648e-13,	7.119083e-14	
13	2.057795e+01	3.903648e-13,	8.983694e-14	
14	2.596768e+01	3.903648e-13,	1.133668e-13	
15	3.276907e+01	3.903648e-13,	1.430595e-13	
16	4.135186e+01	3.903648e-13,	1.805293e-13	
17	5.218263e+01	3.903648e-13,	2.278131e-13	
18	6.585017e+01	3.903648e-13,	2.874813e-13	
19	8.309747e+01	3.903648e-13,	3.627777e-13	
20	1.048621e+02	3.903648e-13,	4.577955e-13	
21	1.323274e+02	3.903648e-13,	5.777001e-13	
22	1.669862e+02	3.903648e-13,	7.290099e-13	
23	2.107228e+02	3.903648e-13,	9.199503e-13	
24	2.659148e+02	3.903648e-13,	1.160901e-12	
25	3.355625e+02	3.903648e-13,	1.464962e-12	
26	4.234522e+02	3.903640e-13,	1.848660e-12	
27	5.343617e+02	3.903640e-13,	2.332857e-12	
28	6.743203e+02	3.903640e-13,	2.943873e-12	
29	8.509366e+02	3.903640e-13,	3.714924e-12	
30	1.073812e+03	3.903640e-13,	4.687928e-12	
31	1.355062e+03	3.903631e-13,	5.915778e-12	
32	1.709976e+03	3.903631e-13,	7.465223e-12	
33	2.157848e+03	3.903614e-13,	9.420495e-12	
34	2.723027e+03	3.903605e-13,	1.188789e-11	
35	3.436235e+03	3.903588e-13,	1.500153e-11	
36	4.336244e+03	3.903553e-13,	1.893069e-11	
37	5.471982e+03	3.903501e-13,	2.388897e-11	
38	6.905190e+03	3.903414e-13,	3.014591e-11	
39	8.713779e+03	3.903293e-13,	3.804165e-11	
40	1.099607e+04	3.903084e-13,	4.800542e-11	
41	1.387613e+04	3.902746e-13,	6.057888e-11	
42	1.751053e+04	3.902217e-13,	7.644554e-11	
43	2.209685e+04	3.901376e-13,	9.646796e-11	
44	2.788440e+04	3.900031e-13,	1.217346e-10	
45	3.518781e+04	3.897898e-13,	1.536190e-10	
46	4.440411e+04	3.894489e-13,	1.938545e-10	
47	5.603431e+04	3.889059e-13,	2.446284e-10	
48	7.071068e+04	3.880429e-13,	3.087008e-10	
49	8.923104e+04	3.866681e-13,	3.895549e-10	
50	1.126022e+05	3.844789e-13,	4.915862e-10	
51	1.420947e+05	3.809921e-13,	6.203412e-10	
52	1.793118e+05	3.754401e-13,	7.828193e-10	
53	2.262766e+05	3.665991e-13,	9.878533e-10	
54	2.855424e+05	3.525192e-13,	1.246589e-09	

Index   frequency       vv2#branch                      
--------------------------------------------------------------------------------
55	3.603309e+05	3.300988e-13,	1.573093e-09	
56	4.547079e+05	2.943956e-13,	1.985113e-09	
57	5.738038e+05	2.375400e-13,	2.505049e-09	
58	7.240930e+05	1.470013e-13,	3.161165e-09	
59	9.137456e+05	2.824997e-15,	3.989129e-09	
60	1.153072e+06	-2.26767e-13,	5.033952e-09	
61	1.455081e+06	-5.92377e-13,	6.352431e-09	
62	1.836192e+06	-1.17459e-12,	8.016244e-09	
63	2.317123e+06	-2.10172e-12,	1.011584e-08	
64	2.924018e+06	-3.57812e-12,	1.276535e-08	
65	3.689869e+06	-5.92919e-12,	1.610882e-08	
66	4.656310e+06	-9.67311e-12,	2.032801e-08	
67	5.875879e+06	-1.56351e-11,	2.565227e-08	
68	7.414874e+06	-2.51291e-11,	3.237106e-08	
69	9.356958e+06	-4.02477e-11,	4.084963e-08	
70	1.180771e+07	-6.43231e-11,	5.154890e-08	
71	1.490035e+07	-1.02662e-10,	6.505054e-08	
72	1.880302e+07	-1.63713e-10,	8.208858e-08	
73	2.372785e+07	-2.60932e-10,	1.035894e-07	
74	2.994259e+07	-4.15746e-10,	1.307219e-07	
75	3.778508e+07	-6.62274e-10,	1.649617e-07	
76	4.768165e+07	-1.05484e-09,	2.081708e-07	
77	6.017030e+07	-1.67996e-09,	2.627000e-07	
78	7.592995e+07	-2.67535e-09,	3.315171e-07	
79	9.581733e+07	-4.26028e-09,	4.183701e-07	
80	1.209136e+08	-6.78375e-09,	5.279944e-07	
81	1.525829e+08	-1.08011e-08,	6.663775e-07	
82	1.925471e+08	-1.71959e-08,	8.410986e-07	
83	2.429785e+08	-2.73722e-08,	1.061769e-06	
84	3.066188e+08	-4.35600e-08,	1.340612e-06	
85	3.869276e+08	-6.92939e-08,	1.693240e-06	
86	4.882707e+08	-1.10162e-07,	2.139735e-06	
87	6.161573e+08	-1.74960e-07,	2.706188e-06	
88	7.775396e+08	-2.77438e-07,	3.427018e-06	
89	9.811907e+08	-4.38845e-07,	4.348584e-06	
90	1.238182e+09	-6.91424e-07,	5.535072e-06	
91	1.562483e+09	-1.08263e-06,	7.078253e-06	
92	1.971725e+09	-1.67872e-06,	9.113670e-06	
93	2.488154e+09	-2.56382e-06,	1.184641e-05	
94	3.139844e+09	-3.82532e-06,	1.558824e-05	
95	3.962224e+09	-5.51014e-06,	2.079999e-05	
96	5.000000e+09	-7.53588e-06,	2.811313e-05	

                                kicad schematic 
                                AC Analysis  Mon Oct 27 19:20:09  2025
--------------------------------------------------------------------------------
Index   frequency       vv3#branch                      
--------------------------------------------------------------------------------
0	1.000000e+00	1.494489e-12,	1.337359e-13	
1	1.261917e+00	1.494489e-12,	1.687636e-13	
2	1.592436e+00	1.494489e-12,	2.129657e-13	
3	2.009522e+00	1.494489e-12,	2.687452e-13	
4	2.535851e+00	1.494489e-12,	3.391342e-13	
5	3.200035e+00	1.494489e-12,	4.279594e-13	
6	4.038180e+00	1.494489e-12,	5.400494e-13	
7	5.095849e+00	1.494489e-12,	6.814978e-13	
8	6.430541e+00	1.494489e-12,	8.599939e-13	
9	8.114812e+00	1.494489e-12,	1.085241e-12	
10	1.024022e+01	1.494489e-12,	1.369485e-12	
11	1.292231e+01	1.494489e-12,	1.728177e-12	
12	1.630689e+01	1.494489e-12,	2.180816e-12	
13	2.057795e+01	1.494489e-12,	2.752010e-12	
14	2.596768e+01	1.494489e-12,	3.472810e-12	
15	3.276907e+01	1.494489e-12,	4.382399e-12	
16	4.135186e+01	1.494489e-12,	5.530226e-12	
17	5.218263e+01	1.494489e-12,	6.978688e-12	
18	6.585017e+01	1.494489e-12,	8.806529e-12	
19	8.309747e+01	1.494489e-12,	1.111311e-11	
20	1.048621e+02	1.494489e-12,	1.402383e-11	
21	1.323274e+02	1.494489e-12,	1.769691e-11	
22	1.669862e+02	1.494490e-12,	2.233205e-11	
23	2.107228e+02	1.494490e-12,	2.818120e-11	
24	2.659148e+02	1.494491e-12,	3.556234e-11	
25	3.355625e+02	1.494491e-12,	4.487674e-11	
26	4.234522e+02	1.494492e-12,	5.663074e-11	
27	5.343617e+02	1.494494e-12,	7.146332e-11	
28	6.743203e+02	1.494497e-12,	9.018081e-11	
29	8.509366e+02	1.494501e-12,	1.138007e-10	
30	1.073812e+03	1.494508e-12,	1.436071e-10	
31	1.355062e+03	1.494519e-12,	1.812203e-10	
32	1.709976e+03	1.494536e-12,	2.286851e-10	
33	2.157848e+03	1.494565e-12,	2.885817e-10	
34	2.723027e+03	1.494610e-12,	3.641663e-10	
35	3.436235e+03	1.494682e-12,	4.595478e-10	
36	4.336244e+03	1.494796e-12,	5.799114e-10	
37	5.471982e+03	1.494978e-12,	7.318003e-10	
38	6.905190e+03	1.495268e-12,	9.234715e-10	
39	8.713779e+03	1.495729e-12,	1.165345e-09	
40	1.099607e+04	1.496463e-12,	1.470569e-09	
41	1.387613e+04	1.497632e-12,	1.855737e-09	
42	1.751053e+04	1.499495e-12,	2.341786e-09	
43	2.209685e+04	1.502459e-12,	2.955141e-09	
44	2.788440e+04	1.507180e-12,	3.729144e-09	
45	3.518781e+04	1.514698e-12,	4.705871e-09	
46	4.440411e+04	1.526671e-12,	5.938421e-09	
47	5.603431e+04	1.545737e-12,	7.493797e-09	
48	7.071068e+04	1.576099e-12,	9.456553e-09	
49	8.923104e+04	1.624447e-12,	1.193339e-08	
50	1.126022e+05	1.701439e-12,	1.505895e-08	
51	1.420947e+05	1.824042e-12,	1.900315e-08	
52	1.793118e+05	2.019280e-12,	2.398041e-08	
53	2.262766e+05	2.330185e-12,	3.026130e-08	
54	2.855424e+05	2.825282e-12,	3.818726e-08	

Index   frequency       vv3#branch                      
--------------------------------------------------------------------------------
55	3.603309e+05	3.613691e-12,	4.818917e-08	
56	4.547079e+05	4.869182e-12,	6.081075e-08	
57	5.738038e+05	6.868470e-12,	7.673815e-08	
58	7.240930e+05	1.005221e-11,	9.683721e-08	
59	9.137456e+05	1.512210e-11,	1.222006e-07	
60	1.153072e+06	2.319559e-11,	1.542070e-07	
61	1.455081e+06	3.605209e-11,	1.945965e-07	
62	1.836192e+06	5.652524e-11,	2.455647e-07	
63	2.317123e+06	8.912741e-11,	3.098824e-07	
64	2.924018e+06	1.410443e-10,	3.910460e-07	
65	3.689869e+06	2.237185e-10,	4.934677e-07	
66	4.656310e+06	3.553719e-10,	6.227154e-07	
67	5.875879e+06	5.650213e-10,	7.858153e-07	
68	7.414874e+06	8.988745e-10,	9.916337e-07	
69	9.356958e+06	1.430514e-09,	1.251359e-06	
70	1.180771e+07	2.277114e-09,	1.579111e-06	
71	1.490035e+07	3.625268e-09,	1.992705e-06	
72	1.880302e+07	5.772111e-09,	2.514625e-06	
73	2.372785e+07	9.190806e-09,	3.173240e-06	
74	2.994259e+07	1.463482e-08,	4.004348e-06	
75	3.778508e+07	2.330397e-08,	5.053120e-06	
76	4.768165e+07	3.710879e-08,	6.376545e-06	
77	6.017030e+07	5.909147e-08,	8.046523e-06	
78	7.592995e+07	9.409593e-08,	1.015375e-05	
79	9.581733e+07	1.498344e-07,	1.281258e-05	
80	1.209136e+08	2.385844e-07,	1.616720e-05	
81	1.525829e+08	3.798881e-07,	2.039922e-05	
82	1.925471e+08	6.048415e-07,	2.573722e-05	
83	2.429785e+08	9.629045e-07,	3.246836e-05	
84	3.066188e+08	1.532689e-06,	4.095254e-05	
85	3.869276e+08	2.439001e-06,	5.163888e-05	
86	4.882707e+08	3.879632e-06,	6.508407e-05	
87	6.161573e+08	6.167137e-06,	8.197055e-05	
88	7.775396e+08	9.793180e-06,	1.031196e-04	
89	9.811907e+08	1.552552e-05,	1.294889e-04	
90	1.238182e+09	2.454904e-05,	1.621333e-04	
91	1.562483e+09	3.865804e-05,	2.020890e-04	
92	1.971725e+09	6.048699e-05,	2.501132e-04	
93	2.488154e+09	9.371083e-05,	3.061795e-04	
94	3.139844e+09	1.430239e-04,	3.686310e-04	
95	3.962224e+09	2.135145e-04,	4.330211e-04	
96	5.000000e+09	3.089217e-04,	4.910963e-04	

                                kicad schematic 
                                AC Analysis  Mon Oct 27 19:20:09  2025
--------------------------------------------------------------------------------
Index   frequency       vv4#branch                      
--------------------------------------------------------------------------------
0	1.000000e+00	-1.17949e-03,	-2.84329e-13	
1	1.261917e+00	-1.17949e-03,	-3.58800e-13	
2	1.592436e+00	-1.17949e-03,	-4.52775e-13	
3	2.009522e+00	-1.17949e-03,	-5.71365e-13	
4	2.535851e+00	-1.17949e-03,	-7.21016e-13	
5	3.200035e+00	-1.17949e-03,	-9.09862e-13	
6	4.038180e+00	-1.17949e-03,	-1.14817e-12	
7	5.095849e+00	-1.17949e-03,	-1.44890e-12	
8	6.430541e+00	-1.17949e-03,	-1.82839e-12	
9	8.114812e+00	-1.17949e-03,	-2.30727e-12	
10	1.024022e+01	-1.17949e-03,	-2.91159e-12	
11	1.292231e+01	-1.17949e-03,	-3.67419e-12	
12	1.630689e+01	-1.17949e-03,	-4.63652e-12	
13	2.057795e+01	-1.17949e-03,	-5.85091e-12	
14	2.596768e+01	-1.17949e-03,	-7.38336e-12	
15	3.276907e+01	-1.17949e-03,	-9.31719e-12	
16	4.135186e+01	-1.17949e-03,	-1.17575e-11	
17	5.218263e+01	-1.17949e-03,	-1.48370e-11	
18	6.585017e+01	-1.17949e-03,	-1.87231e-11	
19	8.309747e+01	-1.17949e-03,	-2.36270e-11	
20	1.048621e+02	-1.17949e-03,	-2.98153e-11	
21	1.323274e+02	-1.17949e-03,	-3.76245e-11	
22	1.669862e+02	-1.17949e-03,	-4.74790e-11	
23	2.107228e+02	-1.17949e-03,	-5.99146e-11	
24	2.659148e+02	-1.17949e-03,	-7.56072e-11	
25	3.355625e+02	-1.17949e-03,	-9.54101e-11	
26	4.234522e+02	-1.17949e-03,	-1.20400e-10	
27	5.343617e+02	-1.17949e-03,	-1.51934e-10	
28	6.743203e+02	-1.17949e-03,	-1.91729e-10	
29	8.509366e+02	-1.17949e-03,	-2.41946e-10	
30	1.073812e+03	-1.17949e-03,	-3.05316e-10	
31	1.355062e+03	-1.17949e-03,	-3.85283e-10	
32	1.709976e+03	-1.17949e-03,	-4.86195e-10	
33	2.157848e+03	-1.17949e-03,	-6.13539e-10	
34	2.723027e+03	-1.17949e-03,	-7.74235e-10	
35	3.436235e+03	-1.17949e-03,	-9.77021e-10	
36	4.336244e+03	-1.17949e-03,	-1.23292e-09	
37	5.471982e+03	-1.17949e-03,	-1.55584e-09	
38	6.905190e+03	-1.17949e-03,	-1.96334e-09	
39	8.713779e+03	-1.17949e-03,	-2.47758e-09	
40	1.099607e+04	-1.17949e-03,	-3.12650e-09	
41	1.387613e+04	-1.17949e-03,	-3.94538e-09	
42	1.751053e+04	-1.17949e-03,	-4.97875e-09	
43	2.209685e+04	-1.17949e-03,	-6.28277e-09	
44	2.788440e+04	-1.17949e-03,	-7.92834e-09	
45	3.518781e+04	-1.17949e-03,	-1.00049e-08	
46	4.440411e+04	-1.17949e-03,	-1.26254e-08	
47	5.603431e+04	-1.17949e-03,	-1.59322e-08	
48	7.071068e+04	-1.17949e-03,	-2.01051e-08	
49	8.923104e+04	-1.17949e-03,	-2.53710e-08	
50	1.126022e+05	-1.17949e-03,	-3.20161e-08	
51	1.420947e+05	-1.17949e-03,	-4.04016e-08	
52	1.793118e+05	-1.17949e-03,	-5.09835e-08	
53	2.262766e+05	-1.17949e-03,	-6.43370e-08	
54	2.855424e+05	-1.17949e-03,	-8.11879e-08	

Index   frequency       vv4#branch                      
--------------------------------------------------------------------------------
55	3.603309e+05	-1.17949e-03,	-1.02452e-07	
56	4.547079e+05	-1.17949e-03,	-1.29287e-07	
57	5.738038e+05	-1.17949e-03,	-1.63149e-07	
58	7.240930e+05	-1.17949e-03,	-2.05881e-07	
59	9.137456e+05	-1.17949e-03,	-2.59804e-07	
60	1.153072e+06	-1.17949e-03,	-3.27851e-07	
61	1.455081e+06	-1.17949e-03,	-4.13721e-07	
62	1.836192e+06	-1.17949e-03,	-5.22082e-07	
63	2.317123e+06	-1.17949e-03,	-6.58825e-07	
64	2.924018e+06	-1.17949e-03,	-8.31382e-07	
65	3.689869e+06	-1.17949e-03,	-1.04914e-06	
66	4.656310e+06	-1.17949e-03,	-1.32392e-06	
67	5.875879e+06	-1.17949e-03,	-1.67068e-06	
68	7.414874e+06	-1.17950e-03,	-2.10826e-06	
69	9.356958e+06	-1.17950e-03,	-2.66045e-06	
70	1.180771e+07	-1.17950e-03,	-3.35727e-06	
71	1.490035e+07	-1.17950e-03,	-4.23659e-06	
72	1.880302e+07	-1.17951e-03,	-5.34622e-06	
73	2.372785e+07	-1.17951e-03,	-6.74646e-06	
74	2.994259e+07	-1.17952e-03,	-8.51344e-06	
75	3.778508e+07	-1.17954e-03,	-1.07432e-05	
76	4.768165e+07	-1.17957e-03,	-1.35569e-05	
77	6.017030e+07	-1.17961e-03,	-1.71074e-05	
78	7.592995e+07	-1.17968e-03,	-2.15875e-05	
79	9.581733e+07	-1.17979e-03,	-2.72405e-05	
80	1.209136e+08	-1.17997e-03,	-3.43728e-05	
81	1.525829e+08	-1.18025e-03,	-4.33709e-05	
82	1.925471e+08	-1.18069e-03,	-5.47209e-05	
83	2.429785e+08	-1.18141e-03,	-6.90340e-05	
84	3.066188e+08	-1.18254e-03,	-8.70765e-05	
85	3.869276e+08	-1.18434e-03,	-1.09806e-04	
86	4.882707e+08	-1.18720e-03,	-1.38410e-04	
87	6.161573e+08	-1.19174e-03,	-1.74350e-04	
88	7.775396e+08	-1.19894e-03,	-2.19390e-04	
89	9.811907e+08	-1.21032e-03,	-2.75606e-04	
90	1.238182e+09	-1.22825e-03,	-3.45314e-04	
91	1.562483e+09	-1.25630e-03,	-4.30863e-04	
92	1.971725e+09	-1.29973e-03,	-5.34140e-04	
93	2.488154e+09	-1.36592e-03,	-6.55602e-04	
94	3.139844e+09	-1.46438e-03,	-7.92629e-04	
95	3.962224e+09	-1.60560e-03,	-9.37240e-04	
96	5.000000e+09	-1.79778e-03,	-1.07401e-03	

                                kicad schematic 
                                AC Analysis  Mon Oct 27 19:20:09  2025
--------------------------------------------------------------------------------
Index   frequency       vv5#branch                      
--------------------------------------------------------------------------------
0	1.000000e+00	2.652177e-12,	1.413296e-13	
1	1.261917e+00	2.652177e-12,	1.783463e-13	
2	1.592436e+00	2.652177e-12,	2.250583e-13	
3	2.009522e+00	2.652177e-12,	2.840049e-13	
4	2.535851e+00	2.652177e-12,	3.583908e-13	
5	3.200035e+00	2.652177e-12,	4.522596e-13	
6	4.038180e+00	2.652177e-12,	5.707142e-13	
7	5.095849e+00	2.652177e-12,	7.201942e-13	
8	6.430541e+00	2.652177e-12,	9.088256e-13	
9	8.114812e+00	2.652177e-12,	1.146863e-12	
10	1.024022e+01	2.652177e-12,	1.447246e-12	
11	1.292231e+01	2.652177e-12,	1.826305e-12	
12	1.630689e+01	2.652177e-12,	2.304646e-12	
13	2.057795e+01	2.652177e-12,	2.908274e-12	
14	2.596768e+01	2.652177e-12,	3.670001e-12	
15	3.276907e+01	2.652177e-12,	4.631238e-12	
